
T176C 000:857 SEGGER J-Link V4.15n (beta) Log File (0000ms, 0856ms total)
T176C 000:857 DLL Compiled: Jun 18 2010 19:55:09 (0000ms, 0856ms total)
T176C 000:857 Logging started @ 2015-10-21 19:28 (0001ms, 0856ms total)
T176C 000:858 JLINK_SetWarnOutHandler(...) (0000ms, 0857ms total)
T176C 000:858 JLINK_OpenEx(...)
Firmware: J-Link ARM V8 compiled Nov 14 2012 22:34:52
Hardware: V8.00
S/N: 308622870
Feature(s): RDI,FlashDL,FlashBP,JFlash,GDBFULL  returns O.K. (0151ms, 0857ms total)
T176C 001:009 JLINK_SetErrorOutHandler(...) (0000ms, 1008ms total)
T176C 001:009 JLINK_ExecCommand("ProjectFile = "C:\Users\zhaoxudong\Desktop\Cortex-M3\Project\JLinkSettings.ini"", ...)  returns 0x00 (0001ms, 1008ms total)
T176C 001:018 JLINK_ExecCommand("DisableConnectionTimeout", ...)  returns 0x00 (0000ms, 1009ms total)
T176C 001:018 JLINK_TIF_Select(JLINKARM_TIF_JTAG)  returns 0x00 (0000ms, 1009ms total)
T176C 001:018 JLINK_SetSpeed(2000) (0001ms, 1009ms total)
T176C 001:019 JLINK_GetHardwareVersion()  returns 0x13880 (0000ms, 1010ms total)
T176C 001:019 JLINK_GetDLLVersion()  returns 41514 (0000ms, 1010ms total)
T176C 001:019 JLINK_GetFirmwareString(...) (0000ms, 1010ms total)
T176C 001:037 JLINK_GetDLLVersion()  returns 41514 (0000ms, 1010ms total)
T176C 001:037 JLINK_GetCompileDateTime() (0000ms, 1010ms total)
T176C 001:043 JLINK_GetFirmwareString(...) (0000ms, 1010ms total)
T176C 001:049 JLINK_GetHardwareVersion()  returns 0x13880 (0000ms, 1010ms total)
T176C 001:069 JLINK_Reset() >0x2F8 JTAG>TotalIRLen = 9, IRPrint = 0x0011 >0x30 JTAG> >0x210 JTAG> >0x118 JTAG> >0xD8 JTAG> >0x198 JTAG> >0x38 JTAG> >0x118 JTAG> >0xD8 JTAG> >0x2F0 JTAG> >0x2F0 JTAG> >0x198 JTAG> >0x198 JTAG>Found Cortex-M3 r1p1, Little endian. >0xD8 JTAG> >0x240 JTAG> >0x198 JTAG> >0x198 JTAG>TPIU fitted. >0x198 JTAG>ETM fitted. >0x198 JTAG>  FPUnit: 6 code (BP) slots and 2 literal slots >0x198 JTAG> >0x250 JTAG> >0x240 JTAG> >0x280 JTAG> >0x198 JTAG> >0x198 JTAG> >0x240 JTAG>
 >0x240 JTAG> >0x198 JTAG> >0x198 JTAG> >0x17A8 JTAG> >0x240 JTAG> >0x198 JTAG> >0x17A8 JTAG> >0x198 JTAG> -- CPU_WriteMem(4 bytes @ 0xE000EDFC) -- CPU_WriteMem(4 bytes @ 0xE0001028) -- CPU_WriteMem(4 bytes @ 0xE0001038) -- CPU_WriteMem(4 bytes @ 0xE0001048) -- CPU_WriteMem(4 bytes @ 0xE0001058) (0099ms, 1010ms total)
T176C 001:168 JLINK_GetIdData(...) ScanLen=9 NumDevices=2 aId[0]=0x3BA00477 aIrRead[0]=0 aScanLen[0]=0 aScanRead[0]=0 (0000ms, 1109ms total)
T176C 001:168 JLINK_JTAG_GetDeviceID(DeviceIndex = 0)  returns 0x3BA00477 (0000ms, 1109ms total)
T176C 001:168 JLINK_JTAG_GetDeviceInfo(DeviceIndex = 0)  returns 0x00 (0000ms, 1109ms total)
T176C 001:168 JLINK_JTAG_GetDeviceID(DeviceIndex = 1)  returns 0x6414041 (0000ms, 1109ms total)
T176C 001:168 JLINK_JTAG_GetDeviceInfo(DeviceIndex = 1)  returns 0x00 (0000ms, 1109ms total)
T176C 001:168 JLINK_GetDebugInfo(0x100) -- Value=0xE00FF003  returns 0x00 (0000ms, 1109ms total)
T176C 001:174 JLINK_ReadMem (0xE00FF000, 0x0018 Bytes, ...) -- CPU_ReadMem(24 bytes @ 0xE00FF000) -- Data:  03 F0 F0 FF 03 20 F0 FF 03 30 F0 FF 03 10 F0 FF ...  returns 0x00 (0001ms, 1109ms total)
T176C 001:175 JLINK_ReadMemU32(0xE000ED00, 0x0001 Items, ...) -- CPU_ReadMem(4 bytes @ 0xE000ED00) -- Data:  31 C2 1F 41  returns 0x01 (0001ms, 1110ms total)
T176C 001:177 JLINK_Halt()  returns 0x00 (0000ms, 1111ms total)
T176C 001:177 JLINK_IsHalted()  returns TRUE (0000ms, 1111ms total)
T176C 001:177 JLINK_ReadMemU32(0xE000EDF0, 0x0001 Items, ...) -- CPU_ReadMem(4 bytes @ 0xE000EDF0) -- Data:  03 00 03 00  returns 0x01 (0001ms, 1111ms total)
T176C 001:178 JLINK_WriteU32(0xE000EDF0, 0xA05F0003) -- CPU_WriteMem(4 bytes @ 0xE000EDF0)  returns 0x00 (0001ms, 1112ms total)
T176C 001:179 JLINK_WriteU32(0xE000EDFC, 0x01000000) -- CPU_WriteMem(4 bytes @ 0xE000EDFC)  returns 0x00 (0001ms, 1113ms total)
T176C 001:180 JLINK_ReadMemU32(0xE0002000, 0x0001 Items, ...) -- CPU_ReadMem(4 bytes @ 0xE0002000) -- Data:  60 02 00 00  returns 0x01 (0001ms, 1114ms total)
T176C 001:181 JLINK_ReadMemU32(0xE0001000, 0x0001 Items, ...) -- CPU_ReadMem(4 bytes @ 0xE0001000) -- Data:  01 00 00 40  returns 0x01 (0001ms, 1115ms total)
T176C 001:202 JLINK_ExecCommand("Device = STM32F103VE", ...)
                JLINK_ExecCommand("map ram 0x20000000 - 0x2000FFFF", ...)  returns 0x00 (0000ms, 0000ms total)
                JLINK_AddMirrorAreaEx(Addr = 0x00000000, Size = 0x00000000) (0000ms, 0000ms total)
                returns 0x00 (0001ms, 1116ms total)
T176C 001:203 JLINK_GetHWStatus(...)  returns 0x00 (0001ms, 1117ms total)
T176C 001:221 JLINK_GetNumBPUnits(Type = 0xFFFFFF00) >0x2F8 JTAG>TotalIRLen = 9, IRPrint = 0x0011 >0x30 JTAG> >0x210 JTAG> >0x118 JTAG> >0xD8 JTAG> >0x198 JTAG> >0x38 JTAG> >0x118 JTAG> >0xD8 JTAG> >0x2F0 JTAG> >0x2F0 JTAG> >0x198 JTAG> >0x198 JTAG>Found Cortex-M3 r1p1, Little endian. >0xD8 JTAG> >0x240 JTAG> >0x198 JTAG> >0x198 JTAG>TPIU fitted. >0x198 JTAG>ETM fitted. >0x198 JTAG>  FPUnit: 6 code (BP) slots and 2 literal slots >0x198 JTAG>  returns 0x06 (0055ms, 1118ms total)
T176C 001:276 JLINK_GetNumBPUnits(Type = 0xF0)  returns 0x800 (0000ms, 1173ms total)
T176C 001:276 JLINK_GetNumWPUnits()  returns 0x04 (0000ms, 1173ms total)
T176C 001:290 JLINK_GetSpeed()  returns 0x7D0 (0000ms, 1173ms total)
T176C 001:300 JLINK_ReadMemU32(0xE000E004, 0x0001 Items, ...) -- CPU_ReadMem(4 bytes @ 0xE000E004) -- Data:  01 00 00 00  returns 0x01 (0002ms, 1173ms total)
T176C 001:302 JLINK_WriteMem(0xE0001000, 0x001C Bytes, ...) -- Data:  01 00 00 00 00 00 00 00 00 00 00 00 00 00 00 00 ... -- CPU_WriteMem(28 bytes @ 0xE0001000)  returns 0x1C (0000ms, 1175ms total)
T176C 001:303 JLINK_ReadMem (0xE0001000, 0x001C Bytes, ...) -- CPU_ReadMem(28 bytes @ 0xE0001000) -- Data:  01 00 00 40 00 00 00 00 00 00 00 00 00 00 00 00 ...  returns 0x00 (0001ms, 1175ms total)
T176C 001:304 JLINK_Halt()  returns 0x00 (0000ms, 1176ms total)
T176C 001:304 JLINK_IsHalted()  returns TRUE (0000ms, 1176ms total)
T176C 001:307 JLINK_WriteMem(0x20000000, 0x0164 Bytes, ...) -- Data:  00 BE 0A E0 0D 78 2D 06 68 40 08 24 40 00 00 D3 ... -- CPU_WriteMem(356 bytes @ 0x20000000)  returns 0x164 (0003ms, 1176ms total)
T176C 001:310 JLINK_WriteReg(R0, 0x08000000)  returns 0x00 (0000ms, 1179ms total)
T176C 001:310 JLINK_WriteReg(R1, 0x007A1200)  returns 0x00 (0000ms, 1179ms total)
T176C 001:310 JLINK_WriteReg(R2, 0x00000001)  returns 0x00 (0000ms, 1179ms total)
T176C 001:310 JLINK_WriteReg(R3, 0x00000000)  returns 0x00 (0000ms, 1179ms total)
T176C 001:310 JLINK_WriteReg(R4, 0x00000000)  returns 0x00 (0000ms, 1179ms total)
T176C 001:310 JLINK_WriteReg(R5, 0x00000000)  returns 0x00 (0000ms, 1179ms total)
T176C 001:310 JLINK_WriteReg(R6, 0x00000000)  returns 0x00 (0000ms, 1179ms total)
T176C 001:310 JLINK_WriteReg(R7, 0x00000000)  returns 0x00 (0000ms, 1179ms total)
T176C 001:310 JLINK_WriteReg(R8, 0x00000000)  returns 0x00 (0000ms, 1179ms total)
T176C 001:310 JLINK_WriteReg(R9, 0x20000160)  returns 0x00 (0000ms, 1179ms total)
T176C 001:310 JLINK_WriteReg(R10, 0x00000000)  returns 0x00 (0000ms, 1179ms total)
T176C 001:310 JLINK_WriteReg(R11, 0x00000000)  returns 0x00 (0000ms, 1179ms total)
T176C 001:310 JLINK_WriteReg(R12, 0x00000000)  returns 0x00 (0000ms, 1179ms total)
T176C 001:310 JLINK_WriteReg(R13, 0x20000800)  returns 0x00 (0000ms, 1179ms total)
T176C 001:310 JLINK_WriteReg(R14, 0x20000001)  returns 0x00 (0000ms, 1179ms total)
T176C 001:310 JLINK_WriteReg(R15, 0x20000038)  returns 0x00 (0000ms, 1179ms total)
T176C 001:310 JLINK_WriteReg(XPSR, 0x01000000)  returns 0x00 (0000ms, 1179ms total)
T176C 001:310 JLINK_WriteReg(MSP, 0x20000800)  returns 0x00 (0001ms, 1179ms total)
T176C 001:311 JLINK_WriteReg(PSP, 0x20000800)  returns 0x00 (0000ms, 1180ms total)
T176C 001:311 JLINK_WriteReg(CFBP, 0x00000000)  returns 0x00 (0000ms, 1180ms total)
T176C 001:311 JLINK_SetBPEx(Addr = 0x20000000, Type = 0xFFFFFFF2) -- CPU_ReadMem(2 bytes @ 0x20000000)  returns 0x00000001 (0000ms, 1180ms total)
T176C 001:312 JLINK_Go() -- CPU_WriteMem(2 bytes @ 0x20000000) -- CPU_WriteMem(4 bytes @ 0xE0002008) -- CPU_WriteMem(4 bytes @ 0xE000200C) -- CPU_WriteMem(4 bytes @ 0xE0002010) -- CPU_WriteMem(4 bytes @ 0xE0002014) -- CPU_WriteMem(4 bytes @ 0xE0002018) -- CPU_WriteMem(4 bytes @ 0xE000201C) (0006ms, 1180ms total)
T176C 001:318 JLINK_IsHalted() -- CPU_ReadMem(2 bytes @ 0x20000000)  returns TRUE (0007ms, 1186ms total)
T176C 001:325 JLINK_ReadReg(R15)  returns 0x20000000 (0000ms, 1186ms total)
T176C 001:325 JLINK_ClrBPEx(BPHandle = 0x00000001)  returns 0x00 (0000ms, 1186ms total)
T176C 001:325 JLINK_ReadReg(R0)  returns 0x00000000 (0000ms, 1186ms total)
T176C 001:325 JLINK_WriteReg(R0, 0x08000000)  returns 0x00 (0000ms, 1186ms total)
T176C 001:325 JLINK_WriteReg(R1, 0x007A1200)  returns 0x00 (0000ms, 1186ms total)
T176C 001:325 JLINK_WriteReg(R2, 0x00000001)  returns 0x00 (0000ms, 1186ms total)
T176C 001:325 JLINK_WriteReg(R3, 0x00000000)  returns 0x00 (0000ms, 1186ms total)
T176C 001:325 JLINK_WriteReg(R4, 0x00000000)  returns 0x00 (0000ms, 1186ms total)
T176C 001:325 JLINK_WriteReg(R5, 0x00000000)  returns 0x00 (0000ms, 1186ms total)
T176C 001:325 JLINK_WriteReg(R6, 0x00000000)  returns 0x00 (0000ms, 1186ms total)
T176C 001:325 JLINK_WriteReg(R7, 0x00000000)  returns 0x00 (0000ms, 1186ms total)
T176C 001:325 JLINK_WriteReg(R8, 0x00000000)  returns 0x00 (0000ms, 1186ms total)
T176C 001:325 JLINK_WriteReg(R9, 0x20000160)  returns 0x00 (0000ms, 1186ms total)
T176C 001:325 JLINK_WriteReg(R10, 0x00000000)  returns 0x00 (0000ms, 1186ms total)
T176C 001:325 JLINK_WriteReg(R11, 0x00000000)  returns 0x00 (0000ms, 1186ms total)
T176C 001:325 JLINK_WriteReg(R12, 0x00000000)  returns 0x00 (0000ms, 1186ms total)
T176C 001:325 JLINK_WriteReg(R13, 0x20000800)  returns 0x00 (0000ms, 1186ms total)
T176C 001:326 JLINK_WriteReg(R14, 0x20000001)  returns 0x00 (0000ms, 1187ms total)
T176C 001:326 JLINK_WriteReg(R15, 0x2000007C)  returns 0x00 (0000ms, 1187ms total)
T176C 001:326 JLINK_WriteReg(XPSR, 0x01000000)  returns 0x00 (0000ms, 1187ms total)
T176C 001:326 JLINK_WriteReg(MSP, 0x20000800)  returns 0x00 (0000ms, 1187ms total)
T176C 001:326 JLINK_WriteReg(PSP, 0x20000800)  returns 0x00 (0000ms, 1187ms total)
T176C 001:326 JLINK_WriteReg(CFBP, 0x00000000)  returns 0x00 (0000ms, 1187ms total)
T176C 001:326 JLINK_SetBPEx(Addr = 0x20000000, Type = 0xFFFFFFF2)  returns 0x00000002 (0000ms, 1187ms total)
T176C 001:326 JLINK_Go() -- CPU_WriteMem(4 bytes @ 0xE0002008) -- CPU_WriteMem(4 bytes @ 0xE000200C) -- CPU_WriteMem(4 bytes @ 0xE0002010) -- CPU_WriteMem(4 bytes @ 0xE0002014) -- CPU_WriteMem(4 bytes @ 0xE0002018) -- CPU_WriteMem(4 bytes @ 0xE000201C) (0006ms, 1187ms total)
T176C 001:332 JLINK_IsHalted()  returns FALSE (0001ms, 1193ms total)
T176C 001:385 JLINK_IsHalted() -- CPU_ReadMem(2 bytes @ 0x20000000)  returns TRUE (0006ms, 1193ms total)
T176C 001:391 JLINK_ReadReg(R15)  returns 0x20000000 (0000ms, 1193ms total)
T176C 001:391 JLINK_ClrBPEx(BPHandle = 0x00000002)  returns 0x00 (0000ms, 1193ms total)
T176C 001:391 JLINK_ReadReg(R0)  returns 0x00000000 (0000ms, 1193ms total)
T176C 001:442 JLINK_WriteReg(R0, 0x00000001)  returns 0x00 (0000ms, 1193ms total)
T176C 001:442 JLINK_WriteReg(R1, 0x007A1200)  returns 0x00 (0000ms, 1193ms total)
T176C 001:443 JLINK_WriteReg(R2, 0x00000001)  returns 0x00 (0000ms, 1194ms total)
T176C 001:443 JLINK_WriteReg(R3, 0x00000000)  returns 0x00 (0000ms, 1194ms total)
T176C 001:443 JLINK_WriteReg(R4, 0x00000000)  returns 0x00 (0000ms, 1194ms total)
T176C 001:443 JLINK_WriteReg(R5, 0x00000000)  returns 0x00 (0000ms, 1194ms total)
T176C 001:443 JLINK_WriteReg(R6, 0x00000000)  returns 0x00 (0000ms, 1194ms total)
T176C 001:443 JLINK_WriteReg(R7, 0x00000000)  returns 0x00 (0000ms, 1194ms total)
T176C 001:443 JLINK_WriteReg(R8, 0x00000000)  returns 0x00 (0000ms, 1194ms total)
T176C 001:443 JLINK_WriteReg(R9, 0x20000160)  returns 0x00 (0000ms, 1194ms total)
T176C 001:443 JLINK_WriteReg(R10, 0x00000000)  returns 0x00 (0000ms, 1194ms total)
T176C 001:443 JLINK_WriteReg(R11, 0x00000000)  returns 0x00 (0000ms, 1194ms total)
T176C 001:443 JLINK_WriteReg(R12, 0x00000000)  returns 0x00 (0000ms, 1194ms total)
T176C 001:443 JLINK_WriteReg(R13, 0x20000800)  returns 0x00 (0000ms, 1194ms total)
T176C 001:443 JLINK_WriteReg(R14, 0x20000001)  returns 0x00 (0000ms, 1194ms total)
T176C 001:443 JLINK_WriteReg(R15, 0x2000006A)  returns 0x00 (0000ms, 1194ms total)
T176C 001:443 JLINK_WriteReg(XPSR, 0x01000000)  returns 0x00 (0000ms, 1194ms total)
T176C 001:443 JLINK_WriteReg(MSP, 0x20000800)  returns 0x00 (0000ms, 1194ms total)
T176C 001:443 JLINK_WriteReg(PSP, 0x20000800)  returns 0x00 (0000ms, 1194ms total)
T176C 001:443 JLINK_WriteReg(CFBP, 0x00000000)  returns 0x00 (0000ms, 1194ms total)
T176C 001:443 JLINK_SetBPEx(Addr = 0x20000000, Type = 0xFFFFFFF2)  returns 0x00000003 (0000ms, 1194ms total)
T176C 001:443 JLINK_Go() -- CPU_WriteMem(4 bytes @ 0xE0002008) -- CPU_WriteMem(4 bytes @ 0xE000200C) -- CPU_WriteMem(4 bytes @ 0xE0002010) -- CPU_WriteMem(4 bytes @ 0xE0002014) -- CPU_WriteMem(4 bytes @ 0xE0002018) -- CPU_WriteMem(4 bytes @ 0xE000201C) (0006ms, 1194ms total)
T176C 001:449 JLINK_IsHalted() -- CPU_ReadMem(2 bytes @ 0x20000000)  returns TRUE (0007ms, 1200ms total)
T176C 001:456 JLINK_ReadReg(R15)  returns 0x20000000 (0000ms, 1200ms total)
T176C 001:456 JLINK_ClrBPEx(BPHandle = 0x00000003)  returns 0x00 (0000ms, 1200ms total)
T176C 001:456 JLINK_ReadReg(R0)  returns 0x00000000 (0000ms, 1200ms total)
T176C 001:466 JLINK_WriteMem(0x20000000, 0x0164 Bytes, ...) -- Data:  00 BE 0A E0 0D 78 2D 06 68 40 08 24 40 00 00 D3 ... -- CPU_WriteMem(356 bytes @ 0x20000000)  returns 0x164 (0004ms, 1200ms total)
T176C 001:470 JLINK_WriteReg(R0, 0x08000000)  returns 0x00 (0000ms, 1204ms total)
T176C 001:470 JLINK_WriteReg(R1, 0x007A1200)  returns 0x00 (0000ms, 1204ms total)
T176C 001:470 JLINK_WriteReg(R2, 0x00000002)  returns 0x00 (0000ms, 1204ms total)
T176C 001:470 JLINK_WriteReg(R3, 0x00000000)  returns 0x00 (0000ms, 1204ms total)
T176C 001:470 JLINK_WriteReg(R4, 0x00000000)  returns 0x00 (0000ms, 1204ms total)
T176C 001:470 JLINK_WriteReg(R5, 0x00000000)  returns 0x00 (0000ms, 1204ms total)
T176C 001:470 JLINK_WriteReg(R6, 0x00000000)  returns 0x00 (0000ms, 1204ms total)
T176C 001:470 JLINK_WriteReg(R7, 0x00000000)  returns 0x00 (0000ms, 1204ms total)
T176C 001:470 JLINK_WriteReg(R8, 0x00000000)  returns 0x00 (0000ms, 1204ms total)
T176C 001:470 JLINK_WriteReg(R9, 0x20000160)  returns 0x00 (0000ms, 1204ms total)
T176C 001:470 JLINK_WriteReg(R10, 0x00000000)  returns 0x00 (0000ms, 1204ms total)
T176C 001:470 JLINK_WriteReg(R11, 0x00000000)  returns 0x00 (0000ms, 1204ms total)
T176C 001:470 JLINK_WriteReg(R12, 0x00000000)  returns 0x00 (0000ms, 1204ms total)
T176C 001:470 JLINK_WriteReg(R13, 0x20000800)  returns 0x00 (0000ms, 1204ms total)
T176C 001:470 JLINK_WriteReg(R14, 0x20000001)  returns 0x00 (0000ms, 1204ms total)
T176C 001:470 JLINK_WriteReg(R15, 0x20000038)  returns 0x00 (0000ms, 1204ms total)
T176C 001:470 JLINK_WriteReg(XPSR, 0x01000000)  returns 0x00 (0000ms, 1204ms total)
T176C 001:470 JLINK_WriteReg(MSP, 0x20000800)  returns 0x00 (0000ms, 1204ms total)
T176C 001:470 JLINK_WriteReg(PSP, 0x20000800)  returns 0x00 (0000ms, 1204ms total)
T176C 001:470 JLINK_WriteReg(CFBP, 0x00000000)  returns 0x00 (0000ms, 1204ms total)
T176C 001:470 JLINK_SetBPEx(Addr = 0x20000000, Type = 0xFFFFFFF2) -- CPU_ReadMem(2 bytes @ 0x20000000)  returns 0x00000004 (0001ms, 1204ms total)
T176C 001:471 JLINK_Go() -- CPU_WriteMem(2 bytes @ 0x20000000) -- CPU_WriteMem(4 bytes @ 0xE0002008) -- CPU_WriteMem(4 bytes @ 0xE000200C) -- CPU_WriteMem(4 bytes @ 0xE0002010) -- CPU_WriteMem(4 bytes @ 0xE0002014) -- CPU_WriteMem(4 bytes @ 0xE0002018) -- CPU_WriteMem(4 bytes @ 0xE000201C) (0008ms, 1205ms total)
T176C 001:479 JLINK_IsHalted() -- CPU_ReadMem(2 bytes @ 0x20000000)  returns TRUE (0006ms, 1213ms total)
T176C 001:485 JLINK_ReadReg(R15)  returns 0x20000000 (0000ms, 1213ms total)
T176C 001:485 JLINK_ClrBPEx(BPHandle = 0x00000004)  returns 0x00 (0000ms, 1213ms total)
T176C 001:485 JLINK_ReadReg(R0)  returns 0x00000000 (0000ms, 1213ms total)
T176C 001:486 JLINK_WriteMem(0x20000164, 0x0400 Bytes, ...) -- Data:  10 1D 00 20 29 45 00 08 D1 04 00 08 D3 04 00 08 ... -- CPU_WriteMem(1024 bytes @ 0x20000164)  returns 0x400 (0006ms, 1213ms total)
T176C 001:492 JLINK_WriteReg(R0, 0x08000000)  returns 0x00 (0000ms, 1219ms total)
T176C 001:492 JLINK_WriteReg(R1, 0x00000400)  returns 0x00 (0000ms, 1219ms total)
T176C 001:492 JLINK_WriteReg(R2, 0x20000164)  returns 0x00 (0000ms, 1219ms total)
T176C 001:492 JLINK_WriteReg(R3, 0x00000000)  returns 0x00 (0000ms, 1219ms total)
T176C 001:492 JLINK_WriteReg(R4, 0x00000000)  returns 0x00 (0000ms, 1219ms total)
T176C 001:492 JLINK_WriteReg(R5, 0x00000000)  returns 0x00 (0000ms, 1219ms total)
T176C 001:492 JLINK_WriteReg(R6, 0x00000000)  returns 0x00 (0000ms, 1219ms total)
T176C 001:492 JLINK_WriteReg(R7, 0x00000000)  returns 0x00 (0000ms, 1219ms total)
T176C 001:492 JLINK_WriteReg(R8, 0x00000000)  returns 0x00 (0000ms, 1219ms total)
T176C 001:492 JLINK_WriteReg(R9, 0x20000160)  returns 0x00 (0001ms, 1219ms total)
T176C 001:493 JLINK_WriteReg(R10, 0x00000000)  returns 0x00 (0000ms, 1220ms total)
T176C 001:493 JLINK_WriteReg(R11, 0x00000000)  returns 0x00 (0000ms, 1220ms total)
T176C 001:493 JLINK_WriteReg(R12, 0x00000000)  returns 0x00 (0000ms, 1220ms total)
T176C 001:493 JLINK_WriteReg(R13, 0x20000800)  returns 0x00 (0000ms, 1220ms total)
T176C 001:493 JLINK_WriteReg(R14, 0x20000001)  returns 0x00 (0000ms, 1220ms total)
T176C 001:493 JLINK_WriteReg(R15, 0x200000F4)  returns 0x00 (0000ms, 1220ms total)
T176C 001:493 JLINK_WriteReg(XPSR, 0x01000000)  returns 0x00 (0000ms, 1220ms total)
T176C 001:493 JLINK_WriteReg(MSP, 0x20000800)  returns 0x00 (0000ms, 1220ms total)
T176C 001:493 JLINK_WriteReg(PSP, 0x20000800)  returns 0x00 (0000ms, 1220ms total)
T176C 001:493 JLINK_WriteReg(CFBP, 0x00000000)  returns 0x00 (0000ms, 1220ms total)
T176C 001:493 JLINK_SetBPEx(Addr = 0x20000000, Type = 0xFFFFFFF2)  returns 0x00000005 (0000ms, 1220ms total)
T176C 001:493 JLINK_Go() -- CPU_WriteMem(4 bytes @ 0xE0002008) -- CPU_WriteMem(4 bytes @ 0xE000200C) -- CPU_WriteMem(4 bytes @ 0xE0002010) -- CPU_WriteMem(4 bytes @ 0xE0002014) -- CPU_WriteMem(4 bytes @ 0xE0002018) -- CPU_WriteMem(4 bytes @ 0xE000201C) (0007ms, 1220ms total)
T176C 001:500 JLINK_IsHalted()  returns FALSE (0001ms, 1227ms total)
T176C 001:552 JLINK_IsHalted() -- CPU_ReadMem(2 bytes @ 0x20000000)  returns TRUE (0006ms, 1227ms total)
T176C 001:558 JLINK_ReadReg(R15)  returns 0x20000000 (0000ms, 1227ms total)
T176C 001:558 JLINK_ClrBPEx(BPHandle = 0x00000005)  returns 0x00 (0000ms, 1227ms total)
T176C 001:558 JLINK_ReadReg(R0)  returns 0x00000000 (0000ms, 1227ms total)
T176C 001:559 JLINK_WriteMem(0x20000164, 0x0400 Bytes, ...) -- Data:  99 FE 01 F0 F3 F9 01 F0 9A FB 01 F0 83 FB 01 F0 ... -- CPU_WriteMem(1024 bytes @ 0x20000164)  returns 0x400 (0007ms, 1227ms total)
T176C 001:566 JLINK_WriteReg(R0, 0x08000400)  returns 0x00 (0000ms, 1234ms total)
T176C 001:566 JLINK_WriteReg(R1, 0x00000400)  returns 0x00 (0000ms, 1234ms total)
T176C 001:566 JLINK_WriteReg(R2, 0x20000164)  returns 0x00 (0000ms, 1234ms total)
T176C 001:566 JLINK_WriteReg(R3, 0x00000000)  returns 0x00 (0000ms, 1234ms total)
T176C 001:566 JLINK_WriteReg(R4, 0x00000000)  returns 0x00 (0000ms, 1234ms total)
T176C 001:566 JLINK_WriteReg(R5, 0x00000000)  returns 0x00 (0000ms, 1234ms total)
T176C 001:566 JLINK_WriteReg(R6, 0x00000000)  returns 0x00 (0000ms, 1234ms total)
T176C 001:566 JLINK_WriteReg(R7, 0x00000000)  returns 0x00 (0000ms, 1234ms total)
T176C 001:566 JLINK_WriteReg(R8, 0x00000000)  returns 0x00 (0000ms, 1234ms total)
T176C 001:566 JLINK_WriteReg(R9, 0x20000160)  returns 0x00 (0000ms, 1234ms total)
T176C 001:566 JLINK_WriteReg(R10, 0x00000000)  returns 0x00 (0000ms, 1234ms total)
T176C 001:566 JLINK_WriteReg(R11, 0x00000000)  returns 0x00 (0000ms, 1234ms total)
T176C 001:566 JLINK_WriteReg(R12, 0x00000000)  returns 0x00 (0000ms, 1234ms total)
T176C 001:566 JLINK_WriteReg(R13, 0x20000800)  returns 0x00 (0000ms, 1234ms total)
T176C 001:566 JLINK_WriteReg(R14, 0x20000001)  returns 0x00 (0000ms, 1234ms total)
T176C 001:566 JLINK_WriteReg(R15, 0x200000F4)  returns 0x00 (0000ms, 1234ms total)
T176C 001:566 JLINK_WriteReg(XPSR, 0x01000000)  returns 0x00 (0000ms, 1234ms total)
T176C 001:566 JLINK_WriteReg(MSP, 0x20000800)  returns 0x00 (0000ms, 1234ms total)
T176C 001:566 JLINK_WriteReg(PSP, 0x20000800)  returns 0x00 (0000ms, 1234ms total)
T176C 001:566 JLINK_WriteReg(CFBP, 0x00000000)  returns 0x00 (0000ms, 1234ms total)
T176C 001:566 JLINK_SetBPEx(Addr = 0x20000000, Type = 0xFFFFFFF2)  returns 0x00000006 (0000ms, 1234ms total)
T176C 001:566 JLINK_Go() -- CPU_WriteMem(4 bytes @ 0xE0002008) -- CPU_WriteMem(4 bytes @ 0xE000200C) -- CPU_WriteMem(4 bytes @ 0xE0002010) -- CPU_WriteMem(4 bytes @ 0xE0002014) -- CPU_WriteMem(4 bytes @ 0xE0002018) -- CPU_WriteMem(4 bytes @ 0xE000201C) (0007ms, 1234ms total)
T176C 001:573 JLINK_IsHalted()  returns FALSE (0000ms, 1241ms total)
T176C 001:624 JLINK_IsHalted() -- CPU_ReadMem(2 bytes @ 0x20000000)  returns TRUE (0006ms, 1241ms total)
T176C 001:630 JLINK_ReadReg(R15)  returns 0x20000000 (0000ms, 1241ms total)
T176C 001:630 JLINK_ClrBPEx(BPHandle = 0x00000006)  returns 0x00 (0000ms, 1241ms total)
T176C 001:630 JLINK_ReadReg(R0)  returns 0x00000000 (0000ms, 1241ms total)
T176C 001:631 JLINK_WriteMem(0x20000164, 0x0400 Bytes, ...) -- Data:  6D F9 6C 48 40 69 2E 30 00 1B 81 B2 4F F0 80 40 ... -- CPU_WriteMem(1024 bytes @ 0x20000164)  returns 0x400 (0007ms, 1241ms total)
T176C 001:638 JLINK_WriteReg(R0, 0x08000800)  returns 0x00 (0000ms, 1248ms total)
T176C 001:638 JLINK_WriteReg(R1, 0x00000400)  returns 0x00 (0000ms, 1248ms total)
T176C 001:638 JLINK_WriteReg(R2, 0x20000164)  returns 0x00 (0000ms, 1248ms total)
T176C 001:638 JLINK_WriteReg(R3, 0x00000000)  returns 0x00 (0000ms, 1248ms total)
T176C 001:638 JLINK_WriteReg(R4, 0x00000000)  returns 0x00 (0000ms, 1248ms total)
T176C 001:638 JLINK_WriteReg(R5, 0x00000000)  returns 0x00 (0000ms, 1248ms total)
T176C 001:638 JLINK_WriteReg(R6, 0x00000000)  returns 0x00 (0000ms, 1248ms total)
T176C 001:638 JLINK_WriteReg(R7, 0x00000000)  returns 0x00 (0000ms, 1248ms total)
T176C 001:638 JLINK_WriteReg(R8, 0x00000000)  returns 0x00 (0000ms, 1248ms total)
T176C 001:638 JLINK_WriteReg(R9, 0x20000160)  returns 0x00 (0000ms, 1248ms total)
T176C 001:638 JLINK_WriteReg(R10, 0x00000000)  returns 0x00 (0000ms, 1248ms total)
T176C 001:638 JLINK_WriteReg(R11, 0x00000000)  returns 0x00 (0000ms, 1248ms total)
T176C 001:638 JLINK_WriteReg(R12, 0x00000000)  returns 0x00 (0000ms, 1248ms total)
T176C 001:638 JLINK_WriteReg(R13, 0x20000800)  returns 0x00 (0000ms, 1248ms total)
T176C 001:638 JLINK_WriteReg(R14, 0x20000001)  returns 0x00 (0000ms, 1248ms total)
T176C 001:638 JLINK_WriteReg(R15, 0x200000F4)  returns 0x00 (0000ms, 1248ms total)
T176C 001:638 JLINK_WriteReg(XPSR, 0x01000000)  returns 0x00 (0000ms, 1248ms total)
T176C 001:638 JLINK_WriteReg(MSP, 0x20000800)  returns 0x00 (0000ms, 1248ms total)
T176C 001:638 JLINK_WriteReg(PSP, 0x20000800)  returns 0x00 (0000ms, 1248ms total)
T176C 001:638 JLINK_WriteReg(CFBP, 0x00000000)  returns 0x00 (0000ms, 1248ms total)
T176C 001:638 JLINK_SetBPEx(Addr = 0x20000000, Type = 0xFFFFFFF2)  returns 0x00000007 (0000ms, 1248ms total)
T176C 001:638 JLINK_Go() -- CPU_WriteMem(4 bytes @ 0xE0002008) -- CPU_WriteMem(4 bytes @ 0xE000200C) -- CPU_WriteMem(4 bytes @ 0xE0002010) -- CPU_WriteMem(4 bytes @ 0xE0002014) -- CPU_WriteMem(4 bytes @ 0xE0002018) -- CPU_WriteMem(4 bytes @ 0xE000201C) (0007ms, 1248ms total)
T176C 001:645 JLINK_IsHalted()  returns FALSE (0001ms, 1255ms total)
T176C 001:697 JLINK_IsHalted() -- CPU_ReadMem(2 bytes @ 0x20000000)  returns TRUE (0006ms, 1255ms total)
T176C 001:703 JLINK_ReadReg(R15)  returns 0x20000000 (0000ms, 1255ms total)
T176C 001:703 JLINK_ClrBPEx(BPHandle = 0x00000007)  returns 0x00 (0000ms, 1255ms total)
T176C 001:703 JLINK_ReadReg(R0)  returns 0x00000000 (0000ms, 1255ms total)
T176C 001:704 JLINK_WriteMem(0x20000164, 0x0400 Bytes, ...) -- Data:  64 21 0B FB 01 F0 00 F0 64 FB 76 48 80 69 A0 EB ... -- CPU_WriteMem(1024 bytes @ 0x20000164)  returns 0x400 (0006ms, 1255ms total)
T176C 001:710 JLINK_WriteReg(R0, 0x08000C00)  returns 0x00 (0000ms, 1261ms total)
T176C 001:710 JLINK_WriteReg(R1, 0x00000400)  returns 0x00 (0000ms, 1261ms total)
T176C 001:710 JLINK_WriteReg(R2, 0x20000164)  returns 0x00 (0000ms, 1261ms total)
T176C 001:710 JLINK_WriteReg(R3, 0x00000000)  returns 0x00 (0000ms, 1261ms total)
T176C 001:710 JLINK_WriteReg(R4, 0x00000000)  returns 0x00 (0000ms, 1261ms total)
T176C 001:710 JLINK_WriteReg(R5, 0x00000000)  returns 0x00 (0000ms, 1261ms total)
T176C 001:710 JLINK_WriteReg(R6, 0x00000000)  returns 0x00 (0001ms, 1261ms total)
T176C 001:711 JLINK_WriteReg(R7, 0x00000000)  returns 0x00 (0000ms, 1262ms total)
T176C 001:711 JLINK_WriteReg(R8, 0x00000000)  returns 0x00 (0000ms, 1262ms total)
T176C 001:711 JLINK_WriteReg(R9, 0x20000160)  returns 0x00 (0000ms, 1262ms total)
T176C 001:711 JLINK_WriteReg(R10, 0x00000000)  returns 0x00 (0000ms, 1262ms total)
T176C 001:711 JLINK_WriteReg(R11, 0x00000000)  returns 0x00 (0000ms, 1262ms total)
T176C 001:711 JLINK_WriteReg(R12, 0x00000000)  returns 0x00 (0000ms, 1262ms total)
T176C 001:711 JLINK_WriteReg(R13, 0x20000800)  returns 0x00 (0000ms, 1262ms total)
T176C 001:711 JLINK_WriteReg(R14, 0x20000001)  returns 0x00 (0000ms, 1262ms total)
T176C 001:711 JLINK_WriteReg(R15, 0x200000F4)  returns 0x00 (0000ms, 1262ms total)
T176C 001:711 JLINK_WriteReg(XPSR, 0x01000000)  returns 0x00 (0000ms, 1262ms total)
T176C 001:711 JLINK_WriteReg(MSP, 0x20000800)  returns 0x00 (0000ms, 1262ms total)
T176C 001:711 JLINK_WriteReg(PSP, 0x20000800)  returns 0x00 (0000ms, 1262ms total)
T176C 001:711 JLINK_WriteReg(CFBP, 0x00000000)  returns 0x00 (0000ms, 1262ms total)
T176C 001:711 JLINK_SetBPEx(Addr = 0x20000000, Type = 0xFFFFFFF2)  returns 0x00000008 (0000ms, 1262ms total)
T176C 001:711 JLINK_Go() -- CPU_WriteMem(4 bytes @ 0xE0002008) -- CPU_WriteMem(4 bytes @ 0xE000200C) -- CPU_WriteMem(4 bytes @ 0xE0002010) -- CPU_WriteMem(4 bytes @ 0xE0002014) -- CPU_WriteMem(4 bytes @ 0xE0002018) -- CPU_WriteMem(4 bytes @ 0xE000201C) (0006ms, 1262ms total)
T176C 001:717 JLINK_IsHalted()  returns FALSE (0001ms, 1268ms total)
T176C 001:769 JLINK_IsHalted() -- CPU_ReadMem(2 bytes @ 0x20000000)  returns TRUE (0006ms, 1268ms total)
T176C 001:775 JLINK_ReadReg(R15)  returns 0x20000000 (0000ms, 1268ms total)
T176C 001:775 JLINK_ClrBPEx(BPHandle = 0x00000008)  returns 0x00 (0000ms, 1268ms total)
T176C 001:775 JLINK_ReadReg(R0)  returns 0x00000000 (0000ms, 1268ms total)
T176C 001:776 JLINK_WriteMem(0x20000164, 0x0400 Bytes, ...) -- Data:  70 BD 2D E9 F0 5F 81 46 8A 46 93 46 4F F0 00 08 ... -- CPU_WriteMem(1024 bytes @ 0x20000164)  returns 0x400 (0006ms, 1268ms total)
T176C 001:782 JLINK_WriteReg(R0, 0x08001000)  returns 0x00 (0000ms, 1274ms total)
T176C 001:782 JLINK_WriteReg(R1, 0x00000400)  returns 0x00 (0001ms, 1274ms total)
T176C 001:783 JLINK_WriteReg(R2, 0x20000164)  returns 0x00 (0000ms, 1275ms total)
T176C 001:783 JLINK_WriteReg(R3, 0x00000000)  returns 0x00 (0000ms, 1275ms total)
T176C 001:783 JLINK_WriteReg(R4, 0x00000000)  returns 0x00 (0000ms, 1275ms total)
T176C 001:783 JLINK_WriteReg(R5, 0x00000000)  returns 0x00 (0000ms, 1275ms total)
T176C 001:783 JLINK_WriteReg(R6, 0x00000000)  returns 0x00 (0000ms, 1275ms total)
T176C 001:783 JLINK_WriteReg(R7, 0x00000000)  returns 0x00 (0000ms, 1275ms total)
T176C 001:783 JLINK_WriteReg(R8, 0x00000000)  returns 0x00 (0000ms, 1275ms total)
T176C 001:783 JLINK_WriteReg(R9, 0x20000160)  returns 0x00 (0000ms, 1275ms total)
T176C 001:783 JLINK_WriteReg(R10, 0x00000000)  returns 0x00 (0000ms, 1275ms total)
T176C 001:783 JLINK_WriteReg(R11, 0x00000000)  returns 0x00 (0000ms, 1275ms total)
T176C 001:783 JLINK_WriteReg(R12, 0x00000000)  returns 0x00 (0000ms, 1275ms total)
T176C 001:783 JLINK_WriteReg(R13, 0x20000800)  returns 0x00 (0000ms, 1275ms total)
T176C 001:783 JLINK_WriteReg(R14, 0x20000001)  returns 0x00 (0000ms, 1275ms total)
T176C 001:783 JLINK_WriteReg(R15, 0x200000F4)  returns 0x00 (0000ms, 1275ms total)
T176C 001:783 JLINK_WriteReg(XPSR, 0x01000000)  returns 0x00 (0000ms, 1275ms total)
T176C 001:783 JLINK_WriteReg(MSP, 0x20000800)  returns 0x00 (0000ms, 1275ms total)
T176C 001:783 JLINK_WriteReg(PSP, 0x20000800)  returns 0x00 (0000ms, 1275ms total)
T176C 001:783 JLINK_WriteReg(CFBP, 0x00000000)  returns 0x00 (0000ms, 1275ms total)
T176C 001:783 JLINK_SetBPEx(Addr = 0x20000000, Type = 0xFFFFFFF2)  returns 0x00000009 (0000ms, 1275ms total)
T176C 001:783 JLINK_Go() -- CPU_WriteMem(4 bytes @ 0xE0002008) -- CPU_WriteMem(4 bytes @ 0xE000200C) -- CPU_WriteMem(4 bytes @ 0xE0002010) -- CPU_WriteMem(4 bytes @ 0xE0002014) -- CPU_WriteMem(4 bytes @ 0xE0002018) -- CPU_WriteMem(4 bytes @ 0xE000201C) (0007ms, 1275ms total)
T176C 001:790 JLINK_IsHalted()  returns FALSE (0000ms, 1282ms total)
T176C 001:841 JLINK_IsHalted() -- CPU_ReadMem(2 bytes @ 0x20000000)  returns TRUE (0006ms, 1282ms total)
T176C 001:847 JLINK_ReadReg(R15)  returns 0x20000000 (0000ms, 1282ms total)
T176C 001:847 JLINK_ClrBPEx(BPHandle = 0x00000009)  returns 0x00 (0000ms, 1282ms total)
T176C 001:847 JLINK_ReadReg(R0)  returns 0x00000000 (0000ms, 1282ms total)
T176C 001:848 JLINK_WriteMem(0x20000164, 0x0400 Bytes, ...) -- Data:  8A FA 4F F4 70 40 AD F8 00 00 18 20 8D F8 03 00 ... -- CPU_WriteMem(1024 bytes @ 0x20000164)  returns 0x400 (0007ms, 1282ms total)
T176C 001:855 JLINK_WriteReg(R0, 0x08001400)  returns 0x00 (0000ms, 1289ms total)
T176C 001:855 JLINK_WriteReg(R1, 0x00000400)  returns 0x00 (0000ms, 1289ms total)
T176C 001:855 JLINK_WriteReg(R2, 0x20000164)  returns 0x00 (0000ms, 1289ms total)
T176C 001:855 JLINK_WriteReg(R3, 0x00000000)  returns 0x00 (0000ms, 1289ms total)
T176C 001:855 JLINK_WriteReg(R4, 0x00000000)  returns 0x00 (0000ms, 1289ms total)
T176C 001:855 JLINK_WriteReg(R5, 0x00000000)  returns 0x00 (0000ms, 1289ms total)
T176C 001:855 JLINK_WriteReg(R6, 0x00000000)  returns 0x00 (0000ms, 1289ms total)
T176C 001:855 JLINK_WriteReg(R7, 0x00000000)  returns 0x00 (0000ms, 1289ms total)
T176C 001:855 JLINK_WriteReg(R8, 0x00000000)  returns 0x00 (0000ms, 1289ms total)
T176C 001:855 JLINK_WriteReg(R9, 0x20000160)  returns 0x00 (0000ms, 1289ms total)
T176C 001:855 JLINK_WriteReg(R10, 0x00000000)  returns 0x00 (0000ms, 1289ms total)
T176C 001:855 JLINK_WriteReg(R11, 0x00000000)  returns 0x00 (0000ms, 1289ms total)
T176C 001:855 JLINK_WriteReg(R12, 0x00000000)  returns 0x00 (0000ms, 1289ms total)
T176C 001:855 JLINK_WriteReg(R13, 0x20000800)  returns 0x00 (0000ms, 1289ms total)
T176C 001:855 JLINK_WriteReg(R14, 0x20000001)  returns 0x00 (0000ms, 1289ms total)
T176C 001:855 JLINK_WriteReg(R15, 0x200000F4)  returns 0x00 (0000ms, 1289ms total)
T176C 001:855 JLINK_WriteReg(XPSR, 0x01000000)  returns 0x00 (0000ms, 1289ms total)
T176C 001:855 JLINK_WriteReg(MSP, 0x20000800)  returns 0x00 (0000ms, 1289ms total)
T176C 001:855 JLINK_WriteReg(PSP, 0x20000800)  returns 0x00 (0000ms, 1289ms total)
T176C 001:855 JLINK_WriteReg(CFBP, 0x00000000)  returns 0x00 (0000ms, 1289ms total)
T176C 001:855 JLINK_SetBPEx(Addr = 0x20000000, Type = 0xFFFFFFF2)  returns 0x0000000A (0000ms, 1289ms total)
T176C 001:855 JLINK_Go() -- CPU_WriteMem(4 bytes @ 0xE0002008) -- CPU_WriteMem(4 bytes @ 0xE000200C) -- CPU_WriteMem(4 bytes @ 0xE0002010) -- CPU_WriteMem(4 bytes @ 0xE0002014) -- CPU_WriteMem(4 bytes @ 0xE0002018) -- CPU_WriteMem(4 bytes @ 0xE000201C) (0007ms, 1289ms total)
T176C 001:862 JLINK_IsHalted()  returns FALSE (0000ms, 1296ms total)
T176C 001:913 JLINK_IsHalted() -- CPU_ReadMem(2 bytes @ 0x20000000)  returns TRUE (0006ms, 1296ms total)
T176C 001:919 JLINK_ReadReg(R15)  returns 0x20000000 (0000ms, 1296ms total)
T176C 001:919 JLINK_ClrBPEx(BPHandle = 0x0000000A)  returns 0x00 (0000ms, 1296ms total)
T176C 001:919 JLINK_ReadReg(R0)  returns 0x00000000 (0000ms, 1296ms total)
T176C 001:920 JLINK_WriteMem(0x20000164, 0x0400 Bytes, ...) -- Data:  A2 FD 10 BD 10 B5 00 21 16 48 01 F0 D6 FE 00 21 ... -- CPU_WriteMem(1024 bytes @ 0x20000164)  returns 0x400 (0007ms, 1296ms total)
T176C 001:927 JLINK_WriteReg(R0, 0x08001800)  returns 0x00 (0000ms, 1303ms total)
T176C 001:927 JLINK_WriteReg(R1, 0x00000400)  returns 0x00 (0000ms, 1303ms total)
T176C 001:927 JLINK_WriteReg(R2, 0x20000164)  returns 0x00 (0000ms, 1303ms total)
T176C 001:927 JLINK_WriteReg(R3, 0x00000000)  returns 0x00 (0000ms, 1303ms total)
T176C 001:927 JLINK_WriteReg(R4, 0x00000000)  returns 0x00 (0000ms, 1303ms total)
T176C 001:927 JLINK_WriteReg(R5, 0x00000000)  returns 0x00 (0000ms, 1303ms total)
T176C 001:927 JLINK_WriteReg(R6, 0x00000000)  returns 0x00 (0000ms, 1303ms total)
T176C 001:927 JLINK_WriteReg(R7, 0x00000000)  returns 0x00 (0000ms, 1303ms total)
T176C 001:927 JLINK_WriteReg(R8, 0x00000000)  returns 0x00 (0000ms, 1303ms total)
T176C 001:927 JLINK_WriteReg(R9, 0x20000160)  returns 0x00 (0000ms, 1303ms total)
T176C 001:927 JLINK_WriteReg(R10, 0x00000000)  returns 0x00 (0000ms, 1303ms total)
T176C 001:927 JLINK_WriteReg(R11, 0x00000000)  returns 0x00 (0000ms, 1303ms total)
T176C 001:927 JLINK_WriteReg(R12, 0x00000000)  returns 0x00 (0000ms, 1303ms total)
T176C 001:927 JLINK_WriteReg(R13, 0x20000800)  returns 0x00 (0000ms, 1303ms total)
T176C 001:927 JLINK_WriteReg(R14, 0x20000001)  returns 0x00 (0000ms, 1303ms total)
T176C 001:927 JLINK_WriteReg(R15, 0x200000F4)  returns 0x00 (0000ms, 1303ms total)
T176C 001:927 JLINK_WriteReg(XPSR, 0x01000000)  returns 0x00 (0000ms, 1303ms total)
T176C 001:927 JLINK_WriteReg(MSP, 0x20000800)  returns 0x00 (0000ms, 1303ms total)
T176C 001:927 JLINK_WriteReg(PSP, 0x20000800)  returns 0x00 (0000ms, 1303ms total)
T176C 001:927 JLINK_WriteReg(CFBP, 0x00000000)  returns 0x00 (0000ms, 1303ms total)
T176C 001:927 JLINK_SetBPEx(Addr = 0x20000000, Type = 0xFFFFFFF2)  returns 0x0000000B (0000ms, 1303ms total)
T176C 001:927 JLINK_Go() -- CPU_WriteMem(4 bytes @ 0xE0002008) -- CPU_WriteMem(4 bytes @ 0xE000200C) -- CPU_WriteMem(4 bytes @ 0xE0002010) -- CPU_WriteMem(4 bytes @ 0xE0002014) -- CPU_WriteMem(4 bytes @ 0xE0002018) -- CPU_WriteMem(4 bytes @ 0xE000201C) (0007ms, 1303ms total)
T176C 001:934 JLINK_IsHalted()  returns FALSE (0001ms, 1310ms total)
T176C 001:986 JLINK_IsHalted() -- CPU_ReadMem(2 bytes @ 0x20000000)  returns TRUE (0006ms, 1310ms total)
T176C 001:992 JLINK_ReadReg(R15)  returns 0x20000000 (0000ms, 1310ms total)
T176C 001:992 JLINK_ClrBPEx(BPHandle = 0x0000000B)  returns 0x00 (0000ms, 1310ms total)
T176C 001:992 JLINK_ReadReg(R0)  returns 0x00000000 (0000ms, 1310ms total)
T176C 001:993 JLINK_WriteMem(0x20000164, 0x0400 Bytes, ...) -- Data:  00 14 00 40 08 B5 01 21 08 20 01 F0 68 F8 01 21 ... -- CPU_WriteMem(1024 bytes @ 0x20000164)  returns 0x400 (0007ms, 1310ms total)
T176C 002:000 JLINK_WriteReg(R0, 0x08001C00)  returns 0x00 (0000ms, 1317ms total)
T176C 002:000 JLINK_WriteReg(R1, 0x00000400)  returns 0x00 (0000ms, 1317ms total)
T176C 002:000 JLINK_WriteReg(R2, 0x20000164)  returns 0x00 (0000ms, 1317ms total)
T176C 002:000 JLINK_WriteReg(R3, 0x00000000)  returns 0x00 (0000ms, 1317ms total)
T176C 002:000 JLINK_WriteReg(R4, 0x00000000)  returns 0x00 (0000ms, 1317ms total)
T176C 002:000 JLINK_WriteReg(R5, 0x00000000)  returns 0x00 (0000ms, 1317ms total)
T176C 002:000 JLINK_WriteReg(R6, 0x00000000)  returns 0x00 (0000ms, 1317ms total)
T176C 002:000 JLINK_WriteReg(R7, 0x00000000)  returns 0x00 (0000ms, 1317ms total)
T176C 002:000 JLINK_WriteReg(R8, 0x00000000)  returns 0x00 (0000ms, 1317ms total)
T176C 002:000 JLINK_WriteReg(R9, 0x20000160)  returns 0x00 (0000ms, 1317ms total)
T176C 002:000 JLINK_WriteReg(R10, 0x00000000)  returns 0x00 (0001ms, 1317ms total)
T176C 002:001 JLINK_WriteReg(R11, 0x00000000)  returns 0x00 (0000ms, 1318ms total)
T176C 002:001 JLINK_WriteReg(R12, 0x00000000)  returns 0x00 (0000ms, 1318ms total)
T176C 002:001 JLINK_WriteReg(R13, 0x20000800)  returns 0x00 (0000ms, 1318ms total)
T176C 002:001 JLINK_WriteReg(R14, 0x20000001)  returns 0x00 (0000ms, 1318ms total)
T176C 002:001 JLINK_WriteReg(R15, 0x200000F4)  returns 0x00 (0000ms, 1318ms total)
T176C 002:001 JLINK_WriteReg(XPSR, 0x01000000)  returns 0x00 (0000ms, 1318ms total)
T176C 002:001 JLINK_WriteReg(MSP, 0x20000800)  returns 0x00 (0000ms, 1318ms total)
T176C 002:001 JLINK_WriteReg(PSP, 0x20000800)  returns 0x00 (0000ms, 1318ms total)
T176C 002:001 JLINK_WriteReg(CFBP, 0x00000000)  returns 0x00 (0000ms, 1318ms total)
T176C 002:001 JLINK_SetBPEx(Addr = 0x20000000, Type = 0xFFFFFFF2)  returns 0x0000000C (0000ms, 1318ms total)
T176C 002:001 JLINK_Go() -- CPU_WriteMem(4 bytes @ 0xE0002008) -- CPU_WriteMem(4 bytes @ 0xE000200C) -- CPU_WriteMem(4 bytes @ 0xE0002010) -- CPU_WriteMem(4 bytes @ 0xE0002014) -- CPU_WriteMem(4 bytes @ 0xE0002018) -- CPU_WriteMem(4 bytes @ 0xE000201C) (0006ms, 1318ms total)
T176C 002:007 JLINK_IsHalted()  returns FALSE (0001ms, 1324ms total)
T176C 002:059 JLINK_IsHalted() -- CPU_ReadMem(2 bytes @ 0x20000000)  returns TRUE (0006ms, 1324ms total)
T176C 002:065 JLINK_ReadReg(R15)  returns 0x20000000 (0000ms, 1324ms total)
T176C 002:065 JLINK_ClrBPEx(BPHandle = 0x0000000C)  returns 0x00 (0000ms, 1324ms total)
T176C 002:065 JLINK_ReadReg(R0)  returns 0x00000000 (0000ms, 1324ms total)
T176C 002:066 JLINK_WriteMem(0x20000164, 0x0400 Bytes, ...) -- Data:  06 F0 94 FA 4F F4 80 72 00 21 17 48 FF F7 68 FF ... -- CPU_WriteMem(1024 bytes @ 0x20000164)  returns 0x400 (0006ms, 1324ms total)
T176C 002:072 JLINK_WriteReg(R0, 0x08002000)  returns 0x00 (0000ms, 1330ms total)
T176C 002:072 JLINK_WriteReg(R1, 0x00000400)  returns 0x00 (0000ms, 1330ms total)
T176C 002:072 JLINK_WriteReg(R2, 0x20000164)  returns 0x00 (0000ms, 1330ms total)
T176C 002:072 JLINK_WriteReg(R3, 0x00000000)  returns 0x00 (0000ms, 1330ms total)
T176C 002:072 JLINK_WriteReg(R4, 0x00000000)  returns 0x00 (0000ms, 1330ms total)
T176C 002:072 JLINK_WriteReg(R5, 0x00000000)  returns 0x00 (0000ms, 1330ms total)
T176C 002:072 JLINK_WriteReg(R6, 0x00000000)  returns 0x00 (0000ms, 1330ms total)
T176C 002:072 JLINK_WriteReg(R7, 0x00000000)  returns 0x00 (0000ms, 1330ms total)
T176C 002:073 JLINK_WriteReg(R8, 0x00000000)  returns 0x00 (0000ms, 1330ms total)
T176C 002:073 JLINK_WriteReg(R9, 0x20000160)  returns 0x00 (0000ms, 1330ms total)
T176C 002:073 JLINK_WriteReg(R10, 0x00000000)  returns 0x00 (0000ms, 1330ms total)
T176C 002:073 JLINK_WriteReg(R11, 0x00000000)  returns 0x00 (0000ms, 1330ms total)
T176C 002:073 JLINK_WriteReg(R12, 0x00000000)  returns 0x00 (0000ms, 1330ms total)
T176C 002:073 JLINK_WriteReg(R13, 0x20000800)  returns 0x00 (0000ms, 1330ms total)
T176C 002:073 JLINK_WriteReg(R14, 0x20000001)  returns 0x00 (0000ms, 1330ms total)
T176C 002:073 JLINK_WriteReg(R15, 0x200000F4)  returns 0x00 (0000ms, 1330ms total)
T176C 002:073 JLINK_WriteReg(XPSR, 0x01000000)  returns 0x00 (0000ms, 1330ms total)
T176C 002:073 JLINK_WriteReg(MSP, 0x20000800)  returns 0x00 (0000ms, 1330ms total)
T176C 002:073 JLINK_WriteReg(PSP, 0x20000800)  returns 0x00 (0000ms, 1330ms total)
T176C 002:073 JLINK_WriteReg(CFBP, 0x00000000)  returns 0x00 (0000ms, 1330ms total)
T176C 002:073 JLINK_SetBPEx(Addr = 0x20000000, Type = 0xFFFFFFF2)  returns 0x0000000D (0000ms, 1330ms total)
T176C 002:073 JLINK_Go() -- CPU_WriteMem(4 bytes @ 0xE0002008) -- CPU_WriteMem(4 bytes @ 0xE000200C) -- CPU_WriteMem(4 bytes @ 0xE0002010) -- CPU_WriteMem(4 bytes @ 0xE0002014) -- CPU_WriteMem(4 bytes @ 0xE0002018) -- CPU_WriteMem(4 bytes @ 0xE000201C) (0006ms, 1330ms total)
T176C 002:079 JLINK_IsHalted()  returns FALSE (0001ms, 1336ms total)
T176C 002:131 JLINK_IsHalted() -- CPU_ReadMem(2 bytes @ 0x20000000)  returns TRUE (0006ms, 1336ms total)
T176C 002:137 JLINK_ReadReg(R15)  returns 0x20000000 (0000ms, 1336ms total)
T176C 002:137 JLINK_ClrBPEx(BPHandle = 0x0000000D)  returns 0x00 (0000ms, 1336ms total)
T176C 002:137 JLINK_ReadReg(R0)  returns 0x00000000 (0000ms, 1336ms total)
T176C 002:138 JLINK_WriteMem(0x20000164, 0x0400 Bytes, ...) -- Data:  9A FC 06 46 57 48 41 68 30 46 05 F0 91 FC 55 49 ... -- CPU_WriteMem(1024 bytes @ 0x20000164)  returns 0x400 (0006ms, 1336ms total)
T176C 002:144 JLINK_WriteReg(R0, 0x08002400)  returns 0x00 (0000ms, 1342ms total)
T176C 002:144 JLINK_WriteReg(R1, 0x00000400)  returns 0x00 (0000ms, 1342ms total)
T176C 002:144 JLINK_WriteReg(R2, 0x20000164)  returns 0x00 (0000ms, 1342ms total)
T176C 002:144 JLINK_WriteReg(R3, 0x00000000)  returns 0x00 (0000ms, 1342ms total)
T176C 002:144 JLINK_WriteReg(R4, 0x00000000)  returns 0x00 (0000ms, 1342ms total)
T176C 002:144 JLINK_WriteReg(R5, 0x00000000)  returns 0x00 (0000ms, 1342ms total)
T176C 002:144 JLINK_WriteReg(R6, 0x00000000)  returns 0x00 (0000ms, 1342ms total)
T176C 002:144 JLINK_WriteReg(R7, 0x00000000)  returns 0x00 (0000ms, 1342ms total)
T176C 002:144 JLINK_WriteReg(R8, 0x00000000)  returns 0x00 (0000ms, 1342ms total)
T176C 002:144 JLINK_WriteReg(R9, 0x20000160)  returns 0x00 (0001ms, 1342ms total)
T176C 002:145 JLINK_WriteReg(R10, 0x00000000)  returns 0x00 (0000ms, 1343ms total)
T176C 002:145 JLINK_WriteReg(R11, 0x00000000)  returns 0x00 (0000ms, 1343ms total)
T176C 002:145 JLINK_WriteReg(R12, 0x00000000)  returns 0x00 (0000ms, 1343ms total)
T176C 002:145 JLINK_WriteReg(R13, 0x20000800)  returns 0x00 (0000ms, 1343ms total)
T176C 002:145 JLINK_WriteReg(R14, 0x20000001)  returns 0x00 (0000ms, 1343ms total)
T176C 002:145 JLINK_WriteReg(R15, 0x200000F4)  returns 0x00 (0000ms, 1343ms total)
T176C 002:145 JLINK_WriteReg(XPSR, 0x01000000)  returns 0x00 (0000ms, 1343ms total)
T176C 002:145 JLINK_WriteReg(MSP, 0x20000800)  returns 0x00 (0000ms, 1343ms total)
T176C 002:145 JLINK_WriteReg(PSP, 0x20000800)  returns 0x00 (0000ms, 1343ms total)
T176C 002:145 JLINK_WriteReg(CFBP, 0x00000000)  returns 0x00 (0000ms, 1343ms total)
T176C 002:145 JLINK_SetBPEx(Addr = 0x20000000, Type = 0xFFFFFFF2)  returns 0x0000000E (0000ms, 1343ms total)
T176C 002:145 JLINK_Go() -- CPU_WriteMem(4 bytes @ 0xE0002008) -- CPU_WriteMem(4 bytes @ 0xE000200C) -- CPU_WriteMem(4 bytes @ 0xE0002010) -- CPU_WriteMem(4 bytes @ 0xE0002014) -- CPU_WriteMem(4 bytes @ 0xE0002018) -- CPU_WriteMem(4 bytes @ 0xE000201C) (0006ms, 1343ms total)
T176C 002:151 JLINK_IsHalted()  returns FALSE (0001ms, 1349ms total)
T176C 002:203 JLINK_IsHalted() -- CPU_ReadMem(2 bytes @ 0x20000000)  returns TRUE (0007ms, 1349ms total)
T176C 002:210 JLINK_ReadReg(R15)  returns 0x20000000 (0000ms, 1349ms total)
T176C 002:210 JLINK_ClrBPEx(BPHandle = 0x0000000E)  returns 0x00 (0000ms, 1349ms total)
T176C 002:210 JLINK_ReadReg(R0)  returns 0x00000000 (0000ms, 1349ms total)
T176C 002:210 JLINK_WriteMem(0x20000164, 0x0400 Bytes, ...) -- Data:  01 0C 0C FA 00 FC C2 F8 10 C0 40 1C 08 28 D1 D3 ... -- CPU_WriteMem(1024 bytes @ 0x20000164)  returns 0x400 (0007ms, 1349ms total)
T176C 002:217 JLINK_WriteReg(R0, 0x08002800)  returns 0x00 (0000ms, 1356ms total)
T176C 002:217 JLINK_WriteReg(R1, 0x00000400)  returns 0x00 (0000ms, 1356ms total)
T176C 002:217 JLINK_WriteReg(R2, 0x20000164)  returns 0x00 (0000ms, 1356ms total)
T176C 002:217 JLINK_WriteReg(R3, 0x00000000)  returns 0x00 (0000ms, 1356ms total)
T176C 002:217 JLINK_WriteReg(R4, 0x00000000)  returns 0x00 (0000ms, 1356ms total)
T176C 002:217 JLINK_WriteReg(R5, 0x00000000)  returns 0x00 (0000ms, 1356ms total)
T176C 002:217 JLINK_WriteReg(R6, 0x00000000)  returns 0x00 (0000ms, 1356ms total)
T176C 002:217 JLINK_WriteReg(R7, 0x00000000)  returns 0x00 (0000ms, 1356ms total)
T176C 002:217 JLINK_WriteReg(R8, 0x00000000)  returns 0x00 (0000ms, 1356ms total)
T176C 002:217 JLINK_WriteReg(R9, 0x20000160)  returns 0x00 (0000ms, 1356ms total)
T176C 002:217 JLINK_WriteReg(R10, 0x00000000)  returns 0x00 (0000ms, 1356ms total)
T176C 002:218 JLINK_WriteReg(R11, 0x00000000)  returns 0x00 (0000ms, 1357ms total)
T176C 002:218 JLINK_WriteReg(R12, 0x00000000)  returns 0x00 (0000ms, 1357ms total)
T176C 002:218 JLINK_WriteReg(R13, 0x20000800)  returns 0x00 (0000ms, 1357ms total)
T176C 002:218 JLINK_WriteReg(R14, 0x20000001)  returns 0x00 (0000ms, 1357ms total)
T176C 002:218 JLINK_WriteReg(R15, 0x200000F4)  returns 0x00 (0000ms, 1357ms total)
T176C 002:218 JLINK_WriteReg(XPSR, 0x01000000)  returns 0x00 (0000ms, 1357ms total)
T176C 002:218 JLINK_WriteReg(MSP, 0x20000800)  returns 0x00 (0000ms, 1357ms total)
T176C 002:218 JLINK_WriteReg(PSP, 0x20000800)  returns 0x00 (0000ms, 1357ms total)
T176C 002:218 JLINK_WriteReg(CFBP, 0x00000000)  returns 0x00 (0000ms, 1357ms total)
T176C 002:218 JLINK_SetBPEx(Addr = 0x20000000, Type = 0xFFFFFFF2)  returns 0x0000000F (0000ms, 1357ms total)
T176C 002:218 JLINK_Go() -- CPU_WriteMem(4 bytes @ 0xE0002008) -- CPU_WriteMem(4 bytes @ 0xE000200C) -- CPU_WriteMem(4 bytes @ 0xE0002010) -- CPU_WriteMem(4 bytes @ 0xE0002014) -- CPU_WriteMem(4 bytes @ 0xE0002018) -- CPU_WriteMem(4 bytes @ 0xE000201C) (0006ms, 1357ms total)
T176C 002:224 JLINK_IsHalted()  returns FALSE (0001ms, 1363ms total)
T176C 002:276 JLINK_IsHalted() -- CPU_ReadMem(2 bytes @ 0x20000000)  returns TRUE (0006ms, 1363ms total)
T176C 002:282 JLINK_ReadReg(R15)  returns 0x20000000 (0000ms, 1363ms total)
T176C 002:282 JLINK_ClrBPEx(BPHandle = 0x0000000F)  returns 0x00 (0000ms, 1363ms total)
T176C 002:282 JLINK_ReadReg(R0)  returns 0x00000000 (0000ms, 1363ms total)
T176C 002:283 JLINK_WriteMem(0x20000164, 0x0400 Bytes, ...) -- Data:  08 60 70 47 30 B5 00 21 00 22 00 24 00 23 5C 4D ... -- CPU_WriteMem(1024 bytes @ 0x20000164)  returns 0x400 (0006ms, 1363ms total)
T176C 002:289 JLINK_WriteReg(R0, 0x08002C00)  returns 0x00 (0000ms, 1369ms total)
T176C 002:289 JLINK_WriteReg(R1, 0x00000400)  returns 0x00 (0000ms, 1369ms total)
T176C 002:289 JLINK_WriteReg(R2, 0x20000164)  returns 0x00 (0000ms, 1369ms total)
T176C 002:289 JLINK_WriteReg(R3, 0x00000000)  returns 0x00 (0000ms, 1369ms total)
T176C 002:289 JLINK_WriteReg(R4, 0x00000000)  returns 0x00 (0000ms, 1369ms total)
T176C 002:289 JLINK_WriteReg(R5, 0x00000000)  returns 0x00 (0001ms, 1369ms total)
T176C 002:290 JLINK_WriteReg(R6, 0x00000000)  returns 0x00 (0000ms, 1370ms total)
T176C 002:290 JLINK_WriteReg(R7, 0x00000000)  returns 0x00 (0000ms, 1370ms total)
T176C 002:290 JLINK_WriteReg(R8, 0x00000000)  returns 0x00 (0000ms, 1370ms total)
T176C 002:290 JLINK_WriteReg(R9, 0x20000160)  returns 0x00 (0000ms, 1370ms total)
T176C 002:290 JLINK_WriteReg(R10, 0x00000000)  returns 0x00 (0000ms, 1370ms total)
T176C 002:290 JLINK_WriteReg(R11, 0x00000000)  returns 0x00 (0000ms, 1370ms total)
T176C 002:290 JLINK_WriteReg(R12, 0x00000000)  returns 0x00 (0000ms, 1370ms total)
T176C 002:290 JLINK_WriteReg(R13, 0x20000800)  returns 0x00 (0000ms, 1370ms total)
T176C 002:290 JLINK_WriteReg(R14, 0x20000001)  returns 0x00 (0000ms, 1370ms total)
T176C 002:290 JLINK_WriteReg(R15, 0x200000F4)  returns 0x00 (0000ms, 1370ms total)
T176C 002:290 JLINK_WriteReg(XPSR, 0x01000000)  returns 0x00 (0000ms, 1370ms total)
T176C 002:290 JLINK_WriteReg(MSP, 0x20000800)  returns 0x00 (0000ms, 1370ms total)
T176C 002:290 JLINK_WriteReg(PSP, 0x20000800)  returns 0x00 (0000ms, 1370ms total)
T176C 002:290 JLINK_WriteReg(CFBP, 0x00000000)  returns 0x00 (0000ms, 1370ms total)
T176C 002:290 JLINK_SetBPEx(Addr = 0x20000000, Type = 0xFFFFFFF2)  returns 0x00000010 (0000ms, 1370ms total)
T176C 002:290 JLINK_Go() -- CPU_WriteMem(4 bytes @ 0xE0002008) -- CPU_WriteMem(4 bytes @ 0xE000200C) -- CPU_WriteMem(4 bytes @ 0xE0002010) -- CPU_WriteMem(4 bytes @ 0xE0002014) -- CPU_WriteMem(4 bytes @ 0xE0002018) -- CPU_WriteMem(4 bytes @ 0xE000201C) (0006ms, 1370ms total)
T176C 002:296 JLINK_IsHalted()  returns FALSE (0001ms, 1376ms total)
T176C 002:348 JLINK_IsHalted() -- CPU_ReadMem(2 bytes @ 0x20000000)  returns TRUE (0006ms, 1376ms total)
T176C 002:354 JLINK_ReadReg(R15)  returns 0x20000000 (0000ms, 1376ms total)
T176C 002:354 JLINK_ClrBPEx(BPHandle = 0x00000010)  returns 0x00 (0000ms, 1376ms total)
T176C 002:354 JLINK_ReadReg(R0)  returns 0x00000000 (0000ms, 1376ms total)
T176C 002:354 JLINK_WriteMem(0x20000164, 0x0400 Bytes, ...) -- Data:  0D 89 2A 43 4D 88 2A 43 6B 4D A8 42 0B D0 70 4D ... -- CPU_WriteMem(1024 bytes @ 0x20000164)  returns 0x400 (0007ms, 1376ms total)
T176C 002:361 JLINK_WriteReg(R0, 0x08003000)  returns 0x00 (0000ms, 1383ms total)
T176C 002:361 JLINK_WriteReg(R1, 0x00000400)  returns 0x00 (0000ms, 1383ms total)
T176C 002:361 JLINK_WriteReg(R2, 0x20000164)  returns 0x00 (0000ms, 1383ms total)
T176C 002:361 JLINK_WriteReg(R3, 0x00000000)  returns 0x00 (0000ms, 1383ms total)
T176C 002:361 JLINK_WriteReg(R4, 0x00000000)  returns 0x00 (0000ms, 1383ms total)
T176C 002:361 JLINK_WriteReg(R5, 0x00000000)  returns 0x00 (0000ms, 1383ms total)
T176C 002:361 JLINK_WriteReg(R6, 0x00000000)  returns 0x00 (0000ms, 1383ms total)
T176C 002:361 JLINK_WriteReg(R7, 0x00000000)  returns 0x00 (0000ms, 1383ms total)
T176C 002:361 JLINK_WriteReg(R8, 0x00000000)  returns 0x00 (0000ms, 1383ms total)
T176C 002:361 JLINK_WriteReg(R9, 0x20000160)  returns 0x00 (0000ms, 1383ms total)
T176C 002:361 JLINK_WriteReg(R10, 0x00000000)  returns 0x00 (0000ms, 1383ms total)
T176C 002:361 JLINK_WriteReg(R11, 0x00000000)  returns 0x00 (0001ms, 1383ms total)
T176C 002:362 JLINK_WriteReg(R12, 0x00000000)  returns 0x00 (0000ms, 1384ms total)
T176C 002:362 JLINK_WriteReg(R13, 0x20000800)  returns 0x00 (0000ms, 1384ms total)
T176C 002:362 JLINK_WriteReg(R14, 0x20000001)  returns 0x00 (0000ms, 1384ms total)
T176C 002:362 JLINK_WriteReg(R15, 0x200000F4)  returns 0x00 (0000ms, 1384ms total)
T176C 002:362 JLINK_WriteReg(XPSR, 0x01000000)  returns 0x00 (0000ms, 1384ms total)
T176C 002:362 JLINK_WriteReg(MSP, 0x20000800)  returns 0x00 (0000ms, 1384ms total)
T176C 002:362 JLINK_WriteReg(PSP, 0x20000800)  returns 0x00 (0000ms, 1384ms total)
T176C 002:362 JLINK_WriteReg(CFBP, 0x00000000)  returns 0x00 (0000ms, 1384ms total)
T176C 002:362 JLINK_SetBPEx(Addr = 0x20000000, Type = 0xFFFFFFF2)  returns 0x00000011 (0000ms, 1384ms total)
